Sample in Buffer,Sample in Window,TRIGGER,protpg_inst/data_in[23:0],protpg_inst/hsv_h[8:0],protpg_inst/hsv_s[7:0],protpg_inst/hsv_v[7:0]
Radix - UNSIGNED,UNSIGNED,UNSIGNED,HEX,UNSIGNED,UNSIGNED,UNSIGNED
0,0,0,687460,71,37,122
1,1,0,687460,89,37,117
2,2,0,687460,89,37,117
3,3,0,687460,89,37,117
4,4,0,687860,89,37,117
5,5,0,687860,89,37,117
6,6,0,607860,89,46,117
7,7,0,607860,96,46,122
8,8,0,607860,96,46,122
9,9,0,607860,120,46,122
10,10,0,687860,120,46,122
11,11,0,687860,120,46,122
12,12,0,607860,120,46,122
13,13,0,607860,96,46,122
14,14,0,607460,96,46,122
15,15,0,607460,120,46,122
16,16,0,687460,120,37,122
17,17,0,687460,120,37,117
18,18,0,607460,120,37,117
19,19,0,607460,89,37,117
20,20,0,607860,89,37,117
21,21,0,607860,120,37,117
22,22,0,607860,120,46,117
23,23,0,607860,120,46,122
24,24,0,607860,120,46,122
25,25,0,607860,120,46,122
26,26,0,607860,120,46,122
27,27,0,607860,120,46,122
28,28,0,687860,120,46,122
29,29,0,687860,120,46,122
30,30,0,687460,120,46,122
31,31,0,687860,96,46,122
32,32,0,707860,96,37,122
33,33,0,707860,89,46,117
34,34,0,687c60,96,46,122
35,35,0,687c60,71,46,122
36,36,0,608060,71,54,122
37,37,0,587858,100,54,127
38,38,0,606c50,100,56,127
39,39,0,506048,120,65,128
40,40,0,486848,120,66,122
41,41,0,486848,83,61,111
42,42,0,486040,97,79,96
43,43,0,486040,120,79,106
44,44,0,405c40,120,85,106
45,45,0,405838,104,85,96
46,46,0,405438,104,83,96
47,47,0,405838,120,76,95
48,48,0,485838,118,66,90
49,49,0,485838,118,76,85
50,50,0,505c40,118,76,90
51,51,0,505c40,98,76,90
52,52,0,505c48,98,83,90
53,53,0,506048,86,83,95
54,54,0,506048,86,59,95
55,55,0,485c48,96,61,95
56,56,0,506c48,97,61,96
57,57,0,587050,97,59,96
58,58,0,607058,120,87,95
59,59,0,607458,106,68,111
60,60,0,687458,102,48,112
61,61,0,687460,95,56,112
62,62,0,687860,100,56,117
63,63,0,687860,79,37,117
64,64,0,607460,89,46,117
65,65,0,687460,96,46,122
66,66,0,687460,96,37,122
67,67,0,687460,120,37,117
68,68,0,687860,89,37,117
69,69,0,687860,89,37,117
70,70,0,687860,89,46,117
71,71,0,687860,96,46,122
72,72,0,687860,96,46,122
73,73,0,687860,96,46,122
74,74,0,687860,96,46,122
75,75,0,687860,96,46,122
76,76,0,687860,96,46,122
77,77,0,687860,96,46,122
78,78,0,687460,96,46,122
79,79,0,687460,96,46,122
80,80,0,687860,96,37,122
81,81,0,687860,89,37,117
82,82,0,687860,89,46,117
83,83,0,687860,96,46,122
84,84,0,687860,96,46,122
85,85,0,607860,96,46,122
86,86,0,607860,96,46,122
87,87,0,607860,96,46,122
88,88,0,687860,120,46,122
89,89,0,687860,120,46,122
90,90,0,687860,120,46,122
91,91,0,687860,96,46,122
92,92,0,607860,96,46,122
93,93,0,607460,96,46,122
94,94,0,687858,96,46,122
95,95,0,607858,120,37,122
96,96,0,687858,120,65,117
97,97,0,687860,86,65,122
98,98,0,687860,103,65,122
99,99,0,687860,86,46,122
100,100,0,687860,96,46,122
101,101,0,687860,96,46,122
102,102,0,687860,96,46,122
103,103,0,687860,96,46,122
104,104,0,687860,96,46,122
105,105,0,687860,96,46,122
106,106,0,687460,96,46,122
107,107,0,687460,96,46,122
108,108,0,687460,96,37,122
109,109,0,687860,89,37,117
110,110,0,687860,89,37,117
111,111,0,687868,89,46,117
112,112,0,687868,96,46,122
113,113,0,687868,96,27,122
114,114,0,687868,120,27,122
115,115,0,687860,120,27,122
116,116,0,687860,120,27,122
117,117,0,687860,120,46,122
118,118,0,687860,96,46,122
119,119,0,687868,96,46,122
120,120,0,687868,96,46,122
121,121,0,687868,96,27,122
122,122,0,687868,120,27,122
123,123,0,687868,120,27,122
124,124,0,687860,120,27,122
125,125,0,687860,120,27,122
126,126,0,687860,120,46,122
127,127,0,687868,96,46,122
128,128,0,687868,96,46,122
129,129,0,687868,96,27,122
130,130,0,687868,120,27,122
131,131,0,687868,120,27,122
132,132,0,687868,120,27,122
133,133,0,687868,120,27,122
134,134,0,687868,120,27,122
135,135,0,687868,120,27,122
136,136,0,687868,120,27,122
137,137,0,687868,120,27,122
138,138,0,687c68,120,27,122
139,139,0,687c68,120,27,122
140,140,0,687868,120,36,122
141,141,0,687860,120,36,127
142,142,0,687868,120,27,127
143,143,0,687468,120,46,122
144,144,0,687868,96,27,122
145,145,0,687868,120,17,122
146,146,0,687868,120,27,117
147,147,0,687860,120,27,122
148,148,0,687860,120,27,122
149,149,0,687c60,120,46,122
150,150,0,687868,96,46,122
151,151,0,687c68,96,54,122
152,152,0,687c68,100,27,127
153,153,0,687c68,120,36,122
154,154,0,707868,120,36,127
155,155,0,707868,120,36,127
156,156,0,707468,120,27,127
157,157,0,707468,79,27,122
158,158,0,707868,79,19,122
159,159,0,707868,53,19,118
160,160,0,707868,53,27,118
161,161,0,707868,79,27,122
162,162,0,687c68,79,27,122
163,163,0,687c68,79,27,122
164,164,0,687868,79,36,122
165,165,0,687868,120,36,127
166,166,0,687868,120,27,127
167,167,0,687c68,120,27,122
168,168,0,687c68,120,27,122
169,169,0,687c68,120,36,122
170,170,0,687c68,120,36,127
171,171,0,687c68,120,36,127
172,172,0,687c68,120,36,127
173,173,0,687c68,120,36,127
174,174,0,687c68,120,36,127
175,175,0,687c68,120,36,127
176,176,0,687c68,120,36,127
177,177,0,687c68,120,36,127
178,178,0,687c60,120,36,127
179,179,0,687c68,120,36,127
180,180,0,687c68,120,54,127
181,181,0,687c68,100,36,127
182,182,0,687c68,120,36,127
183,183,0,687c68,120,36,127
184,184,0,707868,120,36,127
185,185,0,707868,120,36,127
186,186,0,687868,120,27,127
187,187,0,687c68,79,27,122
188,188,0,687c68,79,27,122
189,189,0,687c68,120,36,122
190,190,0,687c68,120,36,127
191,191,0,687c68,120,36,127
192,192,0,687c70,120,36,127
193,193,0,687c70,120,36,127
194,194,0,707c68,120,36,127
195,195,0,707c68,150,36,127
196,196,0,707868,150,36,127
197,197,0,707868,90,36,127
198,198,0,707868,90,27,127
199,199,0,707868,79,27,122
200,200,0,707c68,79,27,122
201,201,0,707c68,79,27,122
202,202,0,687c68,79,36,122
203,203,0,687868,90,36,127
204,204,0,687c68,90,36,127
205,205,0,687c68,120,27,127
206,206,0,707868,120,36,122
207,207,0,707870,120,36,127
208,208,0,707870,120,27,127
209,209,0,707870,79,8,122
210,210,0,707c68,120,8,122
211,211,0,707c68,120,8,122
212,212,0,707c68,120,36,122
213,213,0,707c68,90,36,127
214,214,0,707c68,90,36,127
215,215,0,707c68,90,36,127
216,216,0,707c70,90,36,127
217,217,0,707c70,90,36,127
218,218,0,707c70,90,18,127
219,219,0,707c70,120,18,127
220,220,0,707c68,120,18,127
221,221,0,707c68,120,18,127
222,222,0,707c70,120,36,127
223,223,0,707c70,90,36,127
224,224,0,707870,90,18,127
225,225,0,707c70,120,18,127
226,226,0,707870,120,8,127
227,227,0,707870,120,18,122
228,228,0,787c70,120,8,127
229,229,0,787c70,120,8,122
230,230,0,707c68,120,18,122
231,231,0,707c68,60,18,127
232,232,0,707c68,60,36,127
233,233,0,707c68,90,36,127
234,234,0,787870,90,36,127
235,235,0,787870,90,36,127
236,236,0,707870,90,18,127
237,237,0,787870,26,18,127
238,238,0,707c70,26,8,127
239,239,0,707c70,120,18,122
240,240,0,707c70,26,18,127
241,241,0,707c70,120,18,127
242,242,0,687c70,120,18,127
243,243,0,687c70,120,18,127
244,244,0,707c70,120,36,127
245,245,0,707c70,150,36,127
246,246,0,787c70,150,18,127
247,247,0,787c70,120,18,127
248,248,0,707c70,120,18,127
249,249,0,707c70,60,18,127
250,250,0,707c70,60,18,127
251,251,0,707c70,120,18,127
252,252,0,787c70,120,18,127
253,253,0,787c70,120,18,127
254,254,0,787c70,120,18,127
255,255,0,787870,60,18,127
256,256,0,787c70,60,18,127
257,257,0,787c70,60,18,127
258,258,0,707c70,26,18,127
259,259,0,707c78,60,18,127
260,260,0,707c78,60,18,127
261,261,0,707c70,120,18,127
262,262,0,787c70,180,18,127
263,263,0,787c70,180,18,127
264,264,0,707c70,120,18,127
265,265,0,707c70,60,18,127
266,266,0,707c70,60,18,127
267,267,0,707c70,120,18,127
268,268,0,707c70,120,18,127
269,269,0,787c70,120,18,127
270,270,0,787c70,120,18,127
271,271,0,787c70,120,18,127
272,272,0,707c68,60,18,127
273,273,0,707c68,60,18,127
274,274,0,707c68,60,36,127
275,275,0,707c70,90,36,127
276,276,0,787c70,90,36,127
277,277,0,787c70,90,18,127
278,278,0,787c70,120,18,127
279,279,0,787c70,60,18,127
280,280,0,787c70,60,18,127
281,281,0,787c78,60,18,127
282,282,0,707c78,60,18,127
283,283,0,707c78,60,0,127
284,284,0,787c78,0,18,127
285,285,0,787c78,180,18,127
286,286,0,787c70,180,0,127
287,287,0,787c70,0,0,127
288,288,0,807c70,0,18,127
289,289,0,807c70,60,18,127
290,290,0,807878,60,20,127
291,291,0,807878,54,20,128
292,292,0,787878,54,12,128
293,293,0,807878,310,12,128
294,294,0,807c78,310,10,128
295,295,0,807c78,300,12,127
296,296,0,807c78,310,2,128
297,297,0,807c78,360,2,128
298,298,0,787c78,360,2,128
299,299,0,787c78,360,2,128
300,300,0,787c78,360,0,128
301,301,0,787c70,0,0,127
302,302,0,787870,0,0,127
303,303,0,787870,0,18,127
304,304,0,787870,60,18,127
305,305,0,787868,26,18,127
306,306,0,707c68,26,18,127
307,307,0,687460,26,36,127
308,308,0,606c58,43,36,127
309,309,0,606850,90,37,127
310,310,0,606858,89,46,117
311,311,0,586050,93,57,111
312,312,0,505848,75,36,106
313,313,0,485040,84,37,106
314,314,0,403840,82,48,96
315,315,0,403438,89,51,90
316,316,0,302830,87,24,80
317,317,0,403840,300,44,64
318,318,0,586058,306,56,64
319,319,0,788478,300,24,54
320,320,0,707868,300,13,64
321,321,0,707460,120,11,96
322,322,0,707460,120,27,133
323,323,0,707460,79,39,122
324,324,0,707460,56,39,118
325,325,0,707460,56,39,118
326,326,0,707060,56,39,118
327,327,0,686c58,56,39,118
328,328,0,686c60,56,39,118
329,329,0,606458,40,46,118
330,330,0,605858,66,25,111
331,331,0,585050,71,25,111
332,332,0,504c48,66,25,101
333,333,0,504c48,354,30,100
334,334,0,484c48,350,28,91
335,335,0,484c48,40,28,82
336,336,0,485048,40,19,82
337,337,0,485048,120,19,79
338,338,0,484048,120,22,79
339,339,0,403840,120,22,80
340,340,0,403838,120,31,80
341,341,0,383030,300,24,73
342,342,0,382c30,300,24,64
343,343,0,382c30,310,60,64
344,344,0,303030,336,65,63
345,345,0,302c28,334,65,63
346,346,0,302c28,334,28,63
347,347,0,282c28,300,42,54
348,348,0,282c30,13,42,54
349,349,0,282c30,13,10,54
350,350,0,282c28,120,42,47
351,351,0,303430,227,42,54
352,352,0,383830,227,10,54
353,353,0,403c30,120,4,47
354,354,0,384030,300,36,54
355,355,0,384030,26,40,63
356,356,0,404030,54,40,64
357,357,0,404030,66,40,64
358,358,0,404038,66,40,64
359,359,0,404038,60,40,64
360,360,0,404038,60,4,64
361,361,0,404038,60,4,64
362,362,0,404038,60,4,64
363,363,0,404038,60,4,64
364,364,0,404030,60,4,64
365,365,0,404030,60,4,64
366,366,0,404030,60,40,64
367,367,0,383c30,60,40,64
368,368,0,383c30,60,40,64
369,369,0,403c30,60,36,64
370,370,0,403838,60,36,63
371,371,0,403838,60,40,63
372,372,0,383830,54,24,64
373,373,0,383430,310,24,64
374,374,0,383830,310,36,64
375,375,0,383430,26,40,63
376,376,0,383430,354,36,63
377,377,0,383430,26,40,63
378,378,0,383030,354,40,63
379,379,0,383030,354,40,63
380,380,0,303030,354,60,63
381,381,0,303030,336,60,63
382,382,0,283430,336,28,63
383,383,0,303c38,300,28,54
384,384,0,384438,300,42,54
385,385,0,384840,187,36,54
386,386,0,404840,180,22,63
387,387,0,484840,120,38,69
388,388,0,484840,125,34,74
389,389,0,484840,120,34,74
390,390,0,484440,66,34,74
391,391,0,484440,66,34,74
392,392,0,404440,66,31,74
393,393,0,505050,33,31,73
394,394,0,585858,33,18,73
395,395,0,606460,120,6,69
396,396,0,686060,300,2,82
397,397,0,686060,300,2,91
398,398,0,686068,120,30,101
399,399,0,686468,342,30,109
400,400,0,686468,342,30,109
401,401,0,686868,300,18,109
402,402,0,706868,300,18,109
403,403,0,686460,300,7,109
404,404,0,686458,300,26,109
405,405,0,585448,345,21,118
406,406,0,484040,6,42,109
407,407,0,484040,33,50,109
408,408,0,484040,40,31,91
409,409,0,484040,360,31,73
410,410,0,483c48,360,31,73
411,411,0,484048,360,31,73
412,412,0,504448,360,35,73
413,413,0,504848,300,31,73
414,414,0,584c48,300,40,73
415,415,0,584848,342,28,82
416,416,0,504848,6,50,82
417,417,0,504848,20,50,91
418,418,0,504c40,3,28,91
419,419,0,504c40,6,28,82
420,420,0,504c48,6,56,82
421,421,0,504840,50,56,82
422,422,0,504848,50,28,82
423,423,0,504848,40,56,82
424,424,0,504840,33,28,82
425,425,0,504840,6,28,82
426,426,0,484840,6,56,82
427,427,0,484840,33,56,82
428,428,0,404440,33,34,82
429,429,0,404440,66,34,74
430,430,0,504040,66,18,74
431,431,0,484040,120,18,69
432,432,0,404040,120,56,69
433,433,0,404040,360,31,82
434,434,0,384048,360,0,73
435,435,0,404448,0,0,64
436,436,0,404050,0,35,64
437,437,0,484458,234,31,73
438,438,0,504850,207,56,73
439,439,0,504850,240,61,82
440,440,0,504c50,250,24,91
441,441,0,504c50,300,24,82
442,442,0,504c58,300,9,82
443,443,0,505058,300,9,82
444,444,0,584c60,300,33,82
445,445,0,584c60,255,30,91
446,446,0,505060,250,53,91
447,447,0,585060,274,53,100
448,448,0,584c60,274,51,100
449,449,0,585060,246,51,100
450,450,0,585060,273,53,100
451,451,0,605460,274,51,100
452,452,0,605460,273,51,100
453,453,0,605460,273,38,100
454,454,0,605460,300,38,100
455,455,0,605860,300,38,100
456,456,0,605860,300,38,100
457,457,0,605860,300,25,100
458,458,0,605860,300,25,100
459,459,0,605860,300,25,100
460,460,0,605c60,300,25,100
461,461,0,605c60,300,25,100
462,462,0,605860,300,12,100
463,463,0,605860,300,12,100
464,464,0,605868,300,25,100
465,465,0,605868,300,25,100
466,466,0,685860,300,44,100
467,467,0,685860,271,44,109
468,468,0,685860,271,44,109
469,469,0,685c60,329,44,109
470,470,0,685868,329,44,109
471,471,0,685868,329,32,109
472,472,0,685870,339,44,109
473,473,0,685c70,300,44,109
474,474,0,686470,300,60,109
475,475,0,686878,280,49,118
476,476,0,706078,276,36,118
477,477,0,887890,268,42,118
478,478,0,9088a0,248,62,127
479,479,0,b0a8c0,282,42,127
480,480,0,b8d8d0,277,40,146
481,481,0,e0fcf8,258,29,164
482,482,0,f0fcf8,272,31,192
483,483,0,f0fcf8,162,27,218
484,484,0,f8fcf8,180,9,255
485,485,0,f8fcf8,180,9,255
486,486,0,f8fcf8,180,0,255
487,487,0,f8fcf8,0,0,255
488,488,0,f8fcf8,0,0,255
489,489,0,f8fcf8,0,0,255
490,490,0,f8fcf8,0,0,255
491,491,0,f8fcf8,0,0,255
492,492,0,f8fcf8,0,0,255
493,493,0,f8fcf8,0,0,255
494,494,0,f8fcf8,0,0,255
495,495,0,f8fcf8,0,0,255
496,496,0,f8fcf8,0,0,255
497,497,0,f8fcf8,0,0,255
498,498,0,f8fcf8,0,0,255
499,499,0,f8fcf8,0,0,255
500,500,0,f8fcf8,0,0,255
501,501,0,f8fcf8,0,0,255
502,502,0,f8fcf8,0,0,255
503,503,0,f8fcf8,0,0,255
504,504,0,f8fcf8,0,0,255
505,505,0,f8fcf8,0,0,255
506,506,0,f8fcf8,0,0,255
507,507,0,f8fcf8,0,0,255
508,508,0,f8fcf8,0,0,255
509,509,0,f8fcf8,0,0,255
510,510,0,f8fcf8,0,0,255
511,511,0,f8fcf8,0,0,255
512,512,0,f8fcf8,0,0,255
513,513,0,f8fcf8,0,0,255
514,514,0,f8fcf8,0,0,255
515,515,0,f8fcf0,0,0,255
516,516,0,f0dce8,0,0,255
517,517,0,d8c0d0,0,9,255
518,518,0,d8d0d8,60,23,255
519,519,0,e0d8e8,324,31,246
520,520,0,e8e0f0,320,12,219
521,521,0,f0ecf8,300,20,219
522,522,0,f8fcf8,271,22,237
523,523,0,f8fcf8,275,16,246
524,524,0,f8fcf8,266,0,255
525,525,0,f8fcf8,0,0,255
526,526,0,f8fcf8,0,0,255
527,527,0,f8fcf8,0,0,255
528,528,0,f8fcf8,0,0,255
529,529,0,f8fcf8,0,0,255
530,530,0,f0f4f8,0,0,255
531,531,0,e8f0f8,0,0,255
532,532,0,d8c8f8,0,10,255
533,533,0,c0b4e0,246,18,255
534,534,0,b8a4e0,230,53,255
535,535,0,a090c8,259,52,255
536,536,0,9890c0,254,70,228
537,537,0,9084b8,264,72,228
538,538,0,9088b0,261,64,201
539,539,0,8880a8,253,77,192
540,540,0,887ca0,253,61,191
541,541,0,8078a0,250,66,182
542,542,0,807498,252,57,173
543,543,0,807498,256,65,164
544,544,0,787098,248,62,164
545,545,0,787090,257,62,155
546,546,0,707090,257,71,155
547,547,0,706c90,260,59,155
548,548,0,706c88,266,59,146
549,549,0,686c88,250,61,146
550,550,0,606880,252,48,146
551,551,0,606880,256,52,137
552,552,0,606480,236,56,137
553,553,0,606480,228,56,128
554,554,0,606078,228,56,128
555,555,0,606078,238,56,128
556,556,0,586078,238,62,128
557,557,0,585c78,247,62,127
558,558,0,585878,247,72,127
559,559,0,505478,232,72,127
560,560,0,585078,234,74,127
561,561,0,505078,241,90,127
562,562,0,505078,236,94,127
563,563,0,505078,254,94,127
564,564,0,484c78,242,94,127
565,565,0,484c70,242,94,127
566,566,0,484878,242,108,127
567,567,0,484878,234,97,127
568,568,0,484478,232,108,118
569,569,0,484470,239,108,127
570,570,0,484470,239,116,127
571,571,0,484478,244,106,127
572,572,0,504478,244,106,118
573,573,0,504878,244,116,118
574,574,0,505078,244,116,127
575,575,0,505078,253,106,127
576,576,0,505078,249,94,127
577,577,0,504c70,242,94,127
578,578,0,504070,242,94,127
579,579,0,483860,242,84,127
580,580,0,403460,244,117,118
581,581,0,403458,260,107,118
582,582,0,403458,261,120,100
583,583,0,383050,254,106,100
584,584,0,383050,257,106,91
585,585,0,303050,257,106,91
586,586,0,383048,266,106,82
587,587,0,383048,266,106,82
588,588,0,303048,250,87,82
589,589,0,302c48,276,87,73
590,590,0,302c48,276,87,73
591,591,0,302c48,254,91,73
592,592,0,888498,256,91,73
593,593,0,888498,256,91,73
594,594,0,888498,256,36,73
595,595,0,888498,250,36,155
596,596,0,888498,250,36,155
597,597,0,888498,250,36,155
598,598,0,888498,250,36,155
599,599,0,888498,250,36,155
600,600,0,888498,250,36,155
601,601,0,888498,250,36,155
602,602,0,888498,250,36,155
603,603,0,888498,250,36,155
604,604,0,888498,250,36,155
605,605,0,888498,250,36,155
606,606,0,888498,250,36,155
607,607,0,888498,250,36,155
608,608,0,888498,250,36,155
609,609,0,888498,250,36,155
610,610,0,888498,250,36,155
611,611,0,888498,250,36,155
612,612,0,888498,250,36,155
613,613,0,888498,250,36,155
614,614,0,888498,250,36,155
615,615,0,888498,250,36,155
616,616,0,888498,250,36,155
617,617,0,888498,250,36,155
618,618,0,888498,250,36,155
619,619,0,888498,250,36,155
620,620,0,888498,250,36,155
621,621,0,888498,250,36,155
622,622,0,888498,250,36,155
623,623,0,888498,250,36,155
624,624,0,888498,250,36,155
625,625,0,888498,250,36,155
626,626,0,888498,250,36,155
627,627,0,888498,250,36,155
628,628,0,888498,250,36,155
629,629,0,888498,250,36,155
630,630,0,888498,250,36,155
631,631,0,888498,250,36,155
632,632,0,888498,250,36,155
633,633,0,888498,250,36,155
634,634,0,888498,250,36,155
635,635,0,888498,250,36,155
636,636,0,888498,250,36,155
637,637,0,888498,250,36,155
638,638,0,888498,250,36,155
639,639,0,888498,250,36,155
640,640,0,888498,250,36,155
641,641,0,888498,250,36,155
642,642,0,888498,250,36,155
643,643,0,888498,250,36,155
644,644,0,888498,250,36,155
645,645,0,888498,250,36,155
646,646,0,888498,250,36,155
647,647,0,888498,250,36,155
648,648,0,888498,250,36,155
649,649,0,888498,250,36,155
650,650,0,888498,250,36,155
651,651,0,888498,250,36,155
652,652,0,888498,250,36,155
653,653,0,888498,250,36,155
654,654,0,888498,250,36,155
655,655,0,888498,250,36,155
656,656,0,888498,250,36,155
657,657,0,888498,250,36,155
658,658,0,888498,250,36,155
659,659,0,888498,250,36,155
660,660,0,888498,250,36,155
661,661,0,888498,250,36,155
662,662,0,888498,250,36,155
663,663,0,888498,250,36,155
664,664,0,888498,250,36,155
665,665,0,888498,250,36,155
666,666,0,888498,250,36,155
667,667,0,888498,250,36,155
668,668,0,888498,250,36,155
669,669,0,888498,250,36,155
670,670,0,888498,250,36,155
671,671,0,888498,250,36,155
672,672,0,888498,250,36,155
673,673,0,888498,250,36,155
674,674,0,888498,250,36,155
675,675,0,888498,250,36,155
676,676,0,888498,250,36,155
677,677,0,888498,250,36,155
678,678,0,888498,250,36,155
679,679,0,888498,250,36,155
680,680,0,888498,250,36,155
681,681,0,888498,250,36,155
682,682,0,888498,250,36,155
683,683,0,888498,250,36,155
684,684,0,888498,250,36,155
685,685,0,888498,250,36,155
686,686,0,888498,250,36,155
687,687,0,888498,250,36,155
688,688,0,888498,250,36,155
689,689,0,888498,250,36,155
690,690,0,888498,250,36,155
691,691,0,888498,250,36,155
692,692,0,888498,250,36,155
693,693,0,888498,250,36,155
694,694,0,888498,250,36,155
695,695,0,888498,250,36,155
696,696,0,888498,250,36,155
697,697,0,888498,250,36,155
698,698,0,888498,250,36,155
699,699,0,888498,250,36,155
700,700,0,888498,250,36,155
701,701,0,888498,250,36,155
702,702,0,888498,250,36,155
703,703,0,888498,250,36,155
704,704,0,888498,250,36,155
705,705,0,888498,250,36,155
706,706,0,888498,250,36,155
707,707,0,888498,250,36,155
708,708,0,888498,250,36,155
709,709,0,888498,250,36,155
710,710,0,888498,250,36,155
711,711,0,888498,250,36,155
712,712,0,888498,250,36,155
713,713,0,888498,250,36,155
714,714,0,888498,250,36,155
715,715,0,888498,250,36,155
716,716,0,888498,250,36,155
717,717,0,888498,250,36,155
718,718,0,888498,250,36,155
719,719,0,888498,250,36,155
720,720,0,888498,250,36,155
721,721,0,888498,250,36,155
722,722,0,888498,250,36,155
723,723,0,888498,250,36,155
724,724,0,888498,250,36,155
725,725,0,888498,250,36,155
726,726,0,888498,250,36,155
727,727,0,888498,250,36,155
728,728,0,888498,250,36,155
729,729,0,888498,250,36,155
730,730,0,888498,250,36,155
731,731,0,888498,250,36,155
732,732,0,888498,250,36,155
